
**** 02/03/14 23:33:05 *********** Evaluation PSpice (Nov 1999) **************

 * C:\Users\Omkar\Dropbox\EMI_Sense_Design_project\PSpice_simulations\ver1.2\Filter_ver1.3.sch


 ****     CIRCUIT DESCRIPTION


******************************************************************************




* Schematics Version 9.1 - Web Update 1
* Mon Feb 03 23:31:59 2014



** Analysis setup **
.ac LIN 101 10 500.00K
.tran 0ns 1000ns
.OP 


* From [PSPICE NETLIST] section of pspiceev.ini:
.lib "nom.lib"

.INC "Filter_ver1.3.net"

**** INCLUDING Filter_ver1.3.net ****
* Schematics Netlist *



C_C1         0 $N_0001  .1uF  
R_R1         0 $N_0001  100  
C_C2         0 0  .1uF  
I_I2         0 $N_0002 DC 1A  
R_R2         $N_0002 $N_0001  68  
R_R3         0 $N_0002  71  

**** RESUMING Filter_ver1.3.cir ****
.INC "Filter_ver1.3.als"



**** INCLUDING Filter_ver1.3.als ****
* Schematics Aliases *

.ALIASES
C_C1            C1(1=0 2=$N_0001 )
R_R1            R1(1=0 2=$N_0001 )
C_C2            C2(1=0 2=0 )
I_I2            I2(+=0 -=$N_0002 )
R_R2            R2(1=$N_0002 2=$N_0001 )
R_R3            R3(1=0 2=$N_0002 )
.ENDALIASES


**** RESUMING Filter_ver1.3.cir ****
.probe


.END

**** 02/03/14 23:33:05 *********** Evaluation PSpice (Nov 1999) **************

 * C:\Users\Omkar\Dropbox\EMI_Sense_Design_project\PSpice_simulations\ver1.2\Filter_ver1.3.sch


 ****     SMALL SIGNAL BIAS SOLUTION       TEMPERATURE =   27.000 DEG C


******************************************************************************



 NODE   VOLTAGE     NODE   VOLTAGE     NODE   VOLTAGE     NODE   VOLTAGE


($N_0001)   29.7070                   ($N_0002)   49.9080                   




    VOLTAGE SOURCE CURRENTS
    NAME         CURRENT


    TOTAL POWER DISSIPATION   0.00E+00  WATTS


**** 02/03/14 23:33:05 *********** Evaluation PSpice (Nov 1999) **************

 * C:\Users\Omkar\Dropbox\EMI_Sense_Design_project\PSpice_simulations\ver1.2\Filter_ver1.3.sch


 ****     OPERATING POINT INFORMATION      TEMPERATURE =   27.000 DEG C


******************************************************************************




WARNING -- No AC sources -- AC Sweep ignored
**** 02/03/14 23:33:05 *********** Evaluation PSpice (Nov 1999) **************

 * C:\Users\Omkar\Dropbox\EMI_Sense_Design_project\PSpice_simulations\ver1.2\Filter_ver1.3.sch


 ****     INITIAL TRANSIENT SOLUTION       TEMPERATURE =   27.000 DEG C


******************************************************************************



 NODE   VOLTAGE     NODE   VOLTAGE     NODE   VOLTAGE     NODE   VOLTAGE


($N_0001)   29.7070                   ($N_0002)   49.9080                   




    VOLTAGE SOURCE CURRENTS
    NAME         CURRENT


    TOTAL POWER DISSIPATION   0.00E+00  WATTS



          JOB CONCLUDED

          TOTAL JOB TIME             .05
